* /home/kanish/fet-based-master-slave-negative-edge-triggered-flipflop-using-sky130pdk/ms_ff/ms_ff.cir
Transient Analysis  Sun Oct 23 18:34:33  2022
--------------------------------------------------------------------------------
Index   time                            clk             clk_bar         
--------------------------------------------------------------------------------
0	0.000000e+00	0.000000e+00	0.000000e+00	1.800000e+00	
1	1.000000e-06	0.000000e+00	0.000000e+00	1.800000e+00	
2	2.000000e-06	0.000000e+00	0.000000e+00	1.800000e+00	
3	4.000000e-06	0.000000e+00	0.000000e+00	1.800000e+00	
4	8.000000e-06	0.000000e+00	0.000000e+00	1.800000e+00	
5	1.600000e-05	0.000000e+00	0.000000e+00	1.800000e+00	
6	3.200000e-05	0.000000e+00	0.000000e+00	1.800000e+00	
7	6.400000e-05	0.000000e+00	0.000000e+00	1.800000e+00	
8	1.000000e-04	0.000000e+00	0.000000e+00	1.800000e+00	
9	1.064000e-04	0.000000e+00	1.152000e-01	1.800001e+00	
10	1.192000e-04	0.000000e+00	3.456000e-01	1.799594e+00	
11	1.448000e-04	0.000000e+00	8.064000e-01	1.126081e-03	
12	1.669243e-04	0.000000e+00	1.204638e+00	-1.37793e-05	
13	1.883293e-04	0.000000e+00	1.589927e+00	9.874235e-06	
14	2.000000e-04	0.000000e+00	1.800000e+00	-8.60621e-06	
15	2.034257e-04	0.000000e+00	1.800000e+00	9.117376e-09	
16	2.102771e-04	0.000000e+00	1.800000e+00	9.185269e-09	
17	2.239799e-04	0.000000e+00	1.800000e+00	9.117389e-09	
18	2.513854e-04	0.000000e+00	1.800000e+00	9.326976e-09	
19	3.061965e-04	0.000000e+00	1.800000e+00	9.117391e-09	
20	4.158187e-04	0.000000e+00	1.800000e+00	9.326976e-09	
21	6.350631e-04	0.000000e+00	1.800000e+00	9.117391e-09	
22	1.073552e-03	0.000000e+00	1.800000e+00	9.326976e-09	
23	1.200000e-03	0.000000e+00	1.800000e+00	9.117391e-09	
24	1.210000e-03	0.000000e+00	1.620000e+00	-2.72959e-07	
25	1.230000e-03	0.000000e+00	1.260000e+00	-3.63924e-07	
26	1.270000e-03	0.000000e+00	5.400000e-01	1.735569e+00	
27	1.300000e-03	0.000000e+00	0.000000e+00	1.800029e+00	
28	1.304464e-03	0.000000e+00	0.000000e+00	1.800001e+00	
29	1.313392e-03	0.000000e+00	0.000000e+00	1.800000e+00	
30	1.331248e-03	0.000000e+00	0.000000e+00	1.800000e+00	
31	1.366960e-03	0.000000e+00	0.000000e+00	1.800000e+00	
32	1.438385e-03	0.000000e+00	0.000000e+00	1.800000e+00	
33	1.581233e-03	0.000000e+00	0.000000e+00	1.800000e+00	
34	1.866931e-03	0.000000e+00	0.000000e+00	1.800000e+00	
35	2.100000e-03	0.000000e+00	0.000000e+00	1.800000e+00	
36	2.110000e-03	0.000000e+00	1.800000e-01	1.799999e+00	
37	2.130000e-03	0.000000e+00	5.400000e-01	1.735959e+00	
38	2.170000e-03	0.000000e+00	1.260000e+00	7.604465e-06	
39	2.200000e-03	0.000000e+00	1.800000e+00	-4.53246e-06	
40	2.205142e-03	0.000000e+00	1.800000e+00	9.184289e-09	
41	2.215426e-03	0.000000e+00	1.800000e+00	9.220683e-09	
42	2.235995e-03	0.000000e+00	1.800000e+00	9.184293e-09	
43	2.277132e-03	0.000000e+00	1.800000e+00	9.260074e-09	
44	2.359405e-03	0.000000e+00	1.800000e+00	9.184293e-09	
45	2.523952e-03	0.000000e+00	1.800000e+00	9.260074e-09	
46	2.853047e-03	0.000000e+00	1.800000e+00	9.184293e-09	
47	3.200000e-03	0.000000e+00	1.800000e+00	9.260074e-09	
48	3.210000e-03	0.000000e+00	1.620000e+00	-2.72959e-07	
49	3.230000e-03	0.000000e+00	1.260000e+00	-3.63924e-07	
50	3.270000e-03	0.000000e+00	5.400000e-01	1.735569e+00	
51	3.300000e-03	0.000000e+00	7.105427e-15	1.800029e+00	
52	3.304464e-03	0.000000e+00	0.000000e+00	1.800001e+00	
53	3.313392e-03	0.000000e+00	0.000000e+00	1.800000e+00	
54	3.331248e-03	0.000000e+00	0.000000e+00	1.800000e+00	

Index   time                            clk             clk_bar         
--------------------------------------------------------------------------------
55	3.366960e-03	0.000000e+00	0.000000e+00	1.800000e+00	
56	3.438385e-03	0.000000e+00	0.000000e+00	1.800000e+00	
57	3.581233e-03	0.000000e+00	0.000000e+00	1.800000e+00	
58	3.866931e-03	0.000000e+00	0.000000e+00	1.800000e+00	
59	4.100000e-03	0.000000e+00	0.000000e+00	1.800000e+00	
60	4.110000e-03	0.000000e+00	1.800000e-01	1.799999e+00	
61	4.130000e-03	0.000000e+00	5.400000e-01	1.735959e+00	
62	4.170000e-03	0.000000e+00	1.260000e+00	7.604465e-06	
63	4.200000e-03	0.000000e+00	1.800000e+00	-4.53246e-06	
64	4.205142e-03	0.000000e+00	1.800000e+00	9.184255e-09	
65	4.215426e-03	0.000000e+00	1.800000e+00	9.220739e-09	
66	4.235995e-03	0.000000e+00	1.800000e+00	9.184262e-09	
67	4.277132e-03	0.000000e+00	1.800000e+00	1.232128e-06	
68	4.300000e-03	0.000000e+00	1.800000e+00	-1.20665e-06	
69	4.304512e-03	0.000000e+00	1.800000e+00	9.092675e-09	
70	4.313537e-03	0.000000e+00	1.800000e+00	9.035885e-09	
71	4.331587e-03	0.000000e+00	1.800000e+00	9.405619e-09	
72	4.367686e-03	0.000000e+00	1.800000e+00	9.038750e-09	
73	4.439884e-03	0.000000e+00	1.800000e+00	9.405608e-09	
74	4.584280e-03	0.000000e+00	1.800000e+00	9.038763e-09	
75	4.873072e-03	0.000000e+00	1.800000e+00	9.405602e-09	
76	5.200000e-03	0.000000e+00	1.800000e+00	9.038766e-09	
77	5.210000e-03	0.000000e+00	1.620000e+00	-2.72960e-07	
78	5.230000e-03	0.000000e+00	1.260000e+00	-3.63924e-07	
79	5.270000e-03	0.000000e+00	5.400000e-01	1.735617e+00	
80	5.300000e-03	0.000000e+00	0.000000e+00	1.800019e+00	
81	5.304349e-03	0.000000e+00	0.000000e+00	1.800000e+00	
82	5.313047e-03	0.000000e+00	0.000000e+00	1.800000e+00	
83	5.330444e-03	0.000000e+00	0.000000e+00	1.800000e+00	
84	5.365237e-03	0.000000e+00	0.000000e+00	1.800000e+00	
85	5.434822e-03	0.000000e+00	0.000000e+00	1.800000e+00	
86	5.573994e-03	0.000000e+00	0.000000e+00	1.800000e+00	
87	5.852337e-03	0.000000e+00	0.000000e+00	1.800000e+00	
88	6.100000e-03	0.000000e+00	0.000000e+00	1.800000e+00	
89	6.110000e-03	0.000000e+00	1.800000e-01	1.799999e+00	
90	6.130000e-03	0.000000e+00	5.400000e-01	1.735953e+00	
91	6.170000e-03	0.000000e+00	1.260000e+00	6.543771e-06	
92	6.200000e-03	0.000000e+00	1.800000e+00	-3.82596e-06	
93	6.205213e-03	0.000000e+00	1.800000e+00	9.061632e-09	
94	6.215639e-03	0.000000e+00	1.800000e+00	9.354622e-09	
95	6.236491e-03	0.000000e+00	1.800000e+00	9.061679e-09	
96	6.278194e-03	0.000000e+00	1.800000e+00	9.382679e-09	
97	6.361601e-03	0.000000e+00	1.800000e+00	9.061692e-09	
98	6.528415e-03	0.000000e+00	1.800000e+00	9.382673e-09	
99	6.862044e-03	0.000000e+00	1.800000e+00	9.061695e-09	
100	7.200000e-03	0.000000e+00	1.800000e+00	9.382670e-09	
101	7.210000e-03	0.000000e+00	1.620000e+00	-2.72960e-07	
102	7.230000e-03	0.000000e+00	1.260000e+00	-3.63924e-07	
103	7.270000e-03	0.000000e+00	5.400000e-01	1.735593e+00	
104	7.300000e-03	0.000000e+00	0.000000e+00	1.800024e+00	
105	7.304868e-03	0.000000e+00	0.000000e+00	1.800001e+00	
106	7.314605e-03	0.000000e+00	0.000000e+00	1.800000e+00	
107	7.334079e-03	0.000000e+00	0.000000e+00	1.800000e+00	
108	7.373026e-03	0.000000e+00	0.000000e+00	1.800000e+00	
109	7.450920e-03	0.000000e+00	0.000000e+00	1.800000e+00	
110	7.606708e-03	0.000000e+00	0.000000e+00	1.800000e+00	
111	7.918285e-03	0.000000e+00	0.000000e+00	1.800000e+00	
112	8.100000e-03	0.000000e+00	0.000000e+00	1.800000e+00	

Index   time                            clk             clk_bar         
--------------------------------------------------------------------------------
113	8.110000e-03	0.000000e+00	1.800000e-01	1.799999e+00	
114	8.130000e-03	0.000000e+00	5.400000e-01	1.735953e+00	
115	8.170000e-03	0.000000e+00	1.260000e+00	4.648711e-06	
116	8.200000e-03	0.000000e+00	1.800000e+00	-2.56392e-06	
117	8.204349e-03	0.000000e+00	1.800000e+00	9.129002e-09	
118	8.213047e-03	0.000000e+00	1.800000e+00	9.302673e-09	
119	8.230444e-03	0.000000e+00	1.800000e+00	9.129049e-09	
120	8.265237e-03	0.000000e+00	1.800000e+00	9.315312e-09	
121	8.334823e-03	0.000000e+00	1.800000e+00	9.129057e-09	
122	8.473996e-03	0.000000e+00	1.800000e+00	9.315308e-09	
123	8.752341e-03	0.000000e+00	1.800000e+00	9.129060e-09	
124	9.200000e-03	0.000000e+00	1.800000e+00	9.315307e-09	
125	9.210000e-03	0.000000e+00	1.620000e+00	-2.72959e-07	
126	9.230000e-03	0.000000e+00	1.260000e+00	-3.63924e-07	
127	9.270000e-03	0.000000e+00	5.400000e-01	1.735544e+00	
128	9.300000e-03	0.000000e+00	7.105427e-15	1.800030e+00	
129	9.304349e-03	0.000000e+00	0.000000e+00	1.800000e+00	
130	9.313047e-03	0.000000e+00	0.000000e+00	1.800000e+00	
131	9.330444e-03	0.000000e+00	0.000000e+00	1.800000e+00	
132	9.365237e-03	0.000000e+00	0.000000e+00	1.800000e+00	
133	9.434822e-03	0.000000e+00	0.000000e+00	1.800000e+00	
134	9.573994e-03	0.000000e+00	0.000000e+00	1.800000e+00	
135	9.852337e-03	0.000000e+00	0.000000e+00	1.800000e+00	
136	1.010000e-02	0.000000e+00	0.000000e+00	1.800000e+00	
137	1.011000e-02	0.000000e+00	1.800000e-01	1.799999e+00	
138	1.013000e-02	0.000000e+00	5.400000e-01	1.735959e+00	
139	1.017000e-02	0.000000e+00	1.260000e+00	7.604465e-06	
140	1.020000e-02	0.000000e+00	1.800000e+00	-4.53246e-06	
141	1.020514e-02	0.000000e+00	1.800000e+00	9.184289e-09	
142	1.021543e-02	0.000000e+00	1.800000e+00	9.220683e-09	
143	1.023599e-02	0.000000e+00	1.800000e+00	9.184293e-09	
144	1.027713e-02	0.000000e+00	1.800000e+00	9.260074e-09	
145	1.035941e-02	0.000000e+00	1.800000e+00	9.184293e-09	
146	1.052395e-02	0.000000e+00	1.800000e+00	9.260074e-09	
147	1.085305e-02	0.000000e+00	1.800000e+00	9.184293e-09	
148	1.120000e-02	0.000000e+00	1.800000e+00	9.260074e-09	
149	1.121000e-02	0.000000e+00	1.620000e+00	-2.72959e-07	
150	1.123000e-02	0.000000e+00	1.260000e+00	-3.63924e-07	
151	1.127000e-02	0.000000e+00	5.400000e-01	1.735569e+00	
152	1.130000e-02	0.000000e+00	3.819167e-14	1.800029e+00	
153	1.130446e-02	0.000000e+00	0.000000e+00	1.800001e+00	
154	1.131339e-02	0.000000e+00	0.000000e+00	1.800000e+00	
155	1.133125e-02	0.000000e+00	0.000000e+00	1.800000e+00	
156	1.136696e-02	0.000000e+00	0.000000e+00	1.800000e+00	
157	1.143838e-02	0.000000e+00	0.000000e+00	1.800000e+00	
158	1.158123e-02	0.000000e+00	0.000000e+00	1.800000e+00	
159	1.186693e-02	0.000000e+00	0.000000e+00	1.800000e+00	
160	1.210000e-02	0.000000e+00	0.000000e+00	1.800000e+00	
161	1.211000e-02	0.000000e+00	1.800000e-01	1.799999e+00	
162	1.213000e-02	0.000000e+00	5.400000e-01	1.735959e+00	
163	1.217000e-02	0.000000e+00	1.260000e+00	7.604465e-06	
164	1.220000e-02	0.000000e+00	1.800000e+00	-4.53246e-06	
165	1.220514e-02	0.000000e+00	1.800000e+00	9.184255e-09	
166	1.221543e-02	0.000000e+00	1.800000e+00	9.220739e-09	
167	1.223599e-02	0.000000e+00	1.800000e+00	9.184262e-09	
168	1.227713e-02	0.000000e+00	1.800000e+00	1.232128e-06	
169	1.230000e-02	0.000000e+00	1.800000e+00	-1.20665e-06	
170	1.230451e-02	0.000000e+00	1.800000e+00	9.092675e-09	

Index   time                            clk             clk_bar         
--------------------------------------------------------------------------------
171	1.231354e-02	0.000000e+00	1.800000e+00	9.035885e-09	
172	1.233159e-02	0.000000e+00	1.800000e+00	9.405619e-09	
173	1.236769e-02	0.000000e+00	1.800000e+00	9.038750e-09	
174	1.243988e-02	0.000000e+00	1.800000e+00	9.405608e-09	
175	1.258428e-02	0.000000e+00	1.800000e+00	9.038763e-09	
176	1.287307e-02	0.000000e+00	1.800000e+00	9.405602e-09	
177	1.320000e-02	0.000000e+00	1.800000e+00	9.038766e-09	
178	1.321000e-02	0.000000e+00	1.620000e+00	-2.72960e-07	
179	1.323000e-02	0.000000e+00	1.260000e+00	-3.63924e-07	
180	1.327000e-02	0.000000e+00	5.400000e-01	1.735617e+00	
181	1.330000e-02	0.000000e+00	7.105427e-15	1.800019e+00	
182	1.330435e-02	0.000000e+00	0.000000e+00	1.800000e+00	
183	1.331305e-02	0.000000e+00	0.000000e+00	1.800000e+00	
184	1.333044e-02	0.000000e+00	0.000000e+00	1.800000e+00	
185	1.336524e-02	0.000000e+00	0.000000e+00	1.800000e+00	
186	1.343482e-02	0.000000e+00	0.000000e+00	1.800000e+00	
187	1.357399e-02	0.000000e+00	0.000000e+00	1.800000e+00	
188	1.385234e-02	0.000000e+00	0.000000e+00	1.800000e+00	
189	1.410000e-02	0.000000e+00	0.000000e+00	1.800000e+00	
190	1.411000e-02	0.000000e+00	1.800000e-01	1.799999e+00	
191	1.413000e-02	0.000000e+00	5.400000e-01	1.735953e+00	
192	1.417000e-02	0.000000e+00	1.260000e+00	6.543771e-06	
193	1.420000e-02	0.000000e+00	1.800000e+00	-3.82596e-06	
194	1.420521e-02	0.000000e+00	1.800000e+00	9.061632e-09	
195	1.421564e-02	0.000000e+00	1.800000e+00	9.354622e-09	
196	1.423649e-02	0.000000e+00	1.800000e+00	9.061679e-09	
197	1.427819e-02	0.000000e+00	1.800000e+00	9.382679e-09	
198	1.436160e-02	0.000000e+00	1.800000e+00	9.061692e-09	
199	1.452842e-02	0.000000e+00	1.800000e+00	9.382673e-09	
200	1.486204e-02	0.000000e+00	1.800000e+00	9.061695e-09	
201	1.520000e-02	0.000000e+00	1.800000e+00	9.382670e-09	
202	1.521000e-02	0.000000e+00	1.620000e+00	-2.72960e-07	
203	1.523000e-02	0.000000e+00	1.260000e+00	-3.63924e-07	
204	1.527000e-02	0.000000e+00	5.400000e-01	1.735593e+00	
205	1.530000e-02	0.000000e+00	3.819167e-14	1.800024e+00	
206	1.530487e-02	0.000000e+00	0.000000e+00	1.800001e+00	
207	1.531461e-02	0.000000e+00	0.000000e+00	1.800000e+00	
208	1.533408e-02	0.000000e+00	0.000000e+00	1.800000e+00	
209	1.537303e-02	0.000000e+00	0.000000e+00	1.800000e+00	
210	1.545092e-02	0.000000e+00	0.000000e+00	1.800000e+00	
211	1.560671e-02	0.000000e+00	0.000000e+00	1.800000e+00	
212	1.591828e-02	0.000000e+00	0.000000e+00	1.800000e+00	
213	1.610000e-02	0.000000e+00	0.000000e+00	1.800000e+00	
214	1.611000e-02	0.000000e+00	1.800000e-01	1.799999e+00	
215	1.613000e-02	0.000000e+00	5.400000e-01	1.735953e+00	
216	1.617000e-02	0.000000e+00	1.260000e+00	4.648711e-06	
217	1.620000e-02	0.000000e+00	1.800000e+00	-2.56392e-06	
218	1.620435e-02	0.000000e+00	1.800000e+00	9.129002e-09	
219	1.621305e-02	0.000000e+00	1.800000e+00	9.302673e-09	
220	1.623044e-02	0.000000e+00	1.800000e+00	9.129049e-09	
221	1.626524e-02	0.000000e+00	1.800000e+00	9.315312e-09	
222	1.633482e-02	0.000000e+00	1.800000e+00	9.129057e-09	
223	1.647400e-02	0.000000e+00	1.800000e+00	9.315308e-09	
224	1.675234e-02	0.000000e+00	1.800000e+00	9.129060e-09	
225	1.720000e-02	0.000000e+00	1.800000e+00	9.315307e-09	
226	1.721000e-02	0.000000e+00	1.620000e+00	-2.72959e-07	
227	1.723000e-02	0.000000e+00	1.260000e+00	-3.63924e-07	
228	1.727000e-02	0.000000e+00	5.400000e-01	1.735544e+00	

Index   time                            clk             clk_bar         
--------------------------------------------------------------------------------
229	1.730000e-02	0.000000e+00	7.105427e-15	1.800030e+00	
230	1.730435e-02	0.000000e+00	0.000000e+00	1.800000e+00	
231	1.731305e-02	0.000000e+00	0.000000e+00	1.800000e+00	
232	1.733044e-02	0.000000e+00	0.000000e+00	1.800000e+00	
233	1.736524e-02	0.000000e+00	0.000000e+00	1.800000e+00	
234	1.743482e-02	0.000000e+00	0.000000e+00	1.800000e+00	
235	1.757399e-02	0.000000e+00	0.000000e+00	1.800000e+00	
236	1.785234e-02	0.000000e+00	0.000000e+00	1.800000e+00	
237	1.810000e-02	0.000000e+00	0.000000e+00	1.800000e+00	
238	1.811000e-02	0.000000e+00	1.800000e-01	1.799999e+00	
239	1.813000e-02	0.000000e+00	5.400000e-01	1.735959e+00	
240	1.817000e-02	0.000000e+00	1.260000e+00	7.604465e-06	
241	1.820000e-02	0.000000e+00	1.800000e+00	-4.53246e-06	
242	1.820514e-02	0.000000e+00	1.800000e+00	9.184289e-09	
243	1.821543e-02	0.000000e+00	1.800000e+00	9.220683e-09	
244	1.823599e-02	0.000000e+00	1.800000e+00	9.184293e-09	
245	1.827713e-02	0.000000e+00	1.800000e+00	9.260074e-09	
246	1.835941e-02	0.000000e+00	1.800000e+00	9.184293e-09	
247	1.852395e-02	0.000000e+00	1.800000e+00	9.260074e-09	
248	1.885305e-02	0.000000e+00	1.800000e+00	9.184293e-09	
249	1.920000e-02	0.000000e+00	1.800000e+00	9.260074e-09	
250	1.921000e-02	0.000000e+00	1.620000e+00	-2.72959e-07	
251	1.923000e-02	0.000000e+00	1.260000e+00	-3.63924e-07	
252	1.927000e-02	0.000000e+00	5.400000e-01	1.735569e+00	
253	1.930000e-02	0.000000e+00	7.105427e-15	1.800029e+00	
254	1.930446e-02	0.000000e+00	0.000000e+00	1.800001e+00	
255	1.931339e-02	0.000000e+00	0.000000e+00	1.800000e+00	
256	1.933125e-02	0.000000e+00	0.000000e+00	1.800000e+00	
257	1.936696e-02	0.000000e+00	0.000000e+00	1.800000e+00	
258	1.943838e-02	0.000000e+00	0.000000e+00	1.800000e+00	
259	1.958123e-02	0.000000e+00	0.000000e+00	1.800000e+00	
260	1.986693e-02	0.000000e+00	0.000000e+00	1.800000e+00	
261	2.010000e-02	0.000000e+00	0.000000e+00	1.800000e+00	
262	2.011000e-02	0.000000e+00	1.800000e-01	1.799999e+00	
263	2.013000e-02	0.000000e+00	5.400000e-01	1.735959e+00	
264	2.017000e-02	0.000000e+00	1.260000e+00	7.604465e-06	
265	2.020000e-02	0.000000e+00	1.800000e+00	-4.53246e-06	
266	2.020514e-02	0.000000e+00	1.800000e+00	9.184255e-09	
267	2.021543e-02	0.000000e+00	1.800000e+00	9.220739e-09	
268	2.023599e-02	0.000000e+00	1.800000e+00	9.184262e-09	
269	2.027713e-02	0.000000e+00	1.800000e+00	1.232128e-06	
270	2.030000e-02	0.000000e+00	1.800000e+00	-1.20665e-06	
271	2.030451e-02	0.000000e+00	1.800000e+00	9.092675e-09	
272	2.031354e-02	0.000000e+00	1.800000e+00	9.035885e-09	
273	2.033159e-02	0.000000e+00	1.800000e+00	9.405619e-09	
274	2.036769e-02	0.000000e+00	1.800000e+00	9.038750e-09	
275	2.043988e-02	0.000000e+00	1.800000e+00	9.405608e-09	
276	2.058428e-02	0.000000e+00	1.800000e+00	9.038763e-09	
277	2.087307e-02	0.000000e+00	1.800000e+00	9.405602e-09	
278	2.120000e-02	0.000000e+00	1.800000e+00	9.038766e-09	
279	2.121000e-02	0.000000e+00	1.620000e+00	-2.72960e-07	
280	2.123000e-02	0.000000e+00	1.260000e+00	-3.63924e-07	
281	2.127000e-02	0.000000e+00	5.400000e-01	1.735617e+00	
282	2.130000e-02	0.000000e+00	7.105427e-15	1.800019e+00	
283	2.130435e-02	0.000000e+00	0.000000e+00	1.800000e+00	
284	2.131305e-02	0.000000e+00	0.000000e+00	1.800000e+00	
285	2.133044e-02	0.000000e+00	0.000000e+00	1.800000e+00	
286	2.136524e-02	0.000000e+00	0.000000e+00	1.800000e+00	

Index   time                            clk             clk_bar         
--------------------------------------------------------------------------------
287	2.143482e-02	0.000000e+00	0.000000e+00	1.800000e+00	
288	2.157399e-02	0.000000e+00	0.000000e+00	1.800000e+00	
289	2.185234e-02	0.000000e+00	0.000000e+00	1.800000e+00	
290	2.210000e-02	0.000000e+00	6.245005e-14	1.800000e+00	
291	2.211000e-02	0.000000e+00	1.800000e-01	1.799999e+00	
292	2.213000e-02	0.000000e+00	5.400000e-01	1.735953e+00	
293	2.217000e-02	0.000000e+00	1.260000e+00	6.543771e-06	
294	2.220000e-02	0.000000e+00	1.800000e+00	-3.82596e-06	
295	2.220521e-02	0.000000e+00	1.800000e+00	9.061632e-09	
296	2.221564e-02	0.000000e+00	1.800000e+00	9.354622e-09	
297	2.223649e-02	0.000000e+00	1.800000e+00	9.061679e-09	
298	2.227819e-02	0.000000e+00	1.800000e+00	9.382679e-09	
299	2.236160e-02	0.000000e+00	1.800000e+00	9.061692e-09	
300	2.252842e-02	0.000000e+00	1.800000e+00	9.382673e-09	
301	2.286204e-02	0.000000e+00	1.800000e+00	9.061695e-09	
302	2.320000e-02	0.000000e+00	1.800000e+00	9.382671e-09	
303	2.321000e-02	0.000000e+00	1.620000e+00	-2.72960e-07	
304	2.323000e-02	0.000000e+00	1.260000e+00	-3.63924e-07	
305	2.327000e-02	0.000000e+00	5.400000e-01	1.735593e+00	
306	2.330000e-02	0.000000e+00	7.105427e-15	1.800024e+00	
307	2.330487e-02	0.000000e+00	0.000000e+00	1.800001e+00	
308	2.331461e-02	0.000000e+00	0.000000e+00	1.800000e+00	
309	2.333408e-02	0.000000e+00	0.000000e+00	1.800000e+00	
310	2.337303e-02	0.000000e+00	0.000000e+00	1.800000e+00	
311	2.345092e-02	0.000000e+00	0.000000e+00	1.800000e+00	
312	2.360671e-02	0.000000e+00	0.000000e+00	1.800000e+00	
313	2.391828e-02	0.000000e+00	0.000000e+00	1.800000e+00	
314	2.410000e-02	0.000000e+00	0.000000e+00	1.800000e+00	
315	2.411000e-02	0.000000e+00	1.800000e-01	1.799999e+00	
316	2.413000e-02	0.000000e+00	5.400000e-01	1.735953e+00	
317	2.417000e-02	0.000000e+00	1.260000e+00	4.648711e-06	
318	2.420000e-02	0.000000e+00	1.800000e+00	-2.56392e-06	
319	2.420435e-02	0.000000e+00	1.800000e+00	9.129002e-09	
320	2.421305e-02	0.000000e+00	1.800000e+00	9.302673e-09	
321	2.423044e-02	0.000000e+00	1.800000e+00	9.129049e-09	
322	2.426524e-02	0.000000e+00	1.800000e+00	9.315312e-09	
323	2.433482e-02	0.000000e+00	1.800000e+00	9.129057e-09	
324	2.447400e-02	0.000000e+00	1.800000e+00	9.315308e-09	
325	2.475234e-02	0.000000e+00	1.800000e+00	9.129060e-09	
326	2.520000e-02	0.000000e+00	1.800000e+00	9.315307e-09	
327	2.521000e-02	0.000000e+00	1.620000e+00	-2.72959e-07	
328	2.523000e-02	0.000000e+00	1.260000e+00	-3.63924e-07	
329	2.527000e-02	0.000000e+00	5.400000e-01	1.735544e+00	
330	2.530000e-02	0.000000e+00	7.105427e-15	1.800030e+00	
331	2.530435e-02	0.000000e+00	0.000000e+00	1.800000e+00	
